#  HZ   S   RI   R     50.00 
! Rohde & Schwarz Vector Network Analyzer 
! Rohde-Schwarz,ZNB8-4Port,1311601044102771,3.45
! Created: UTC 10/24/2024, 3:26:41 PM
!The following Port Impedance Renormalization has been used when saving the data.
!PortZ  Port1:50+j0    Port2:50+j0    Port3:50+j0    Port4:50+j0
! freq[Hz]                re:S11                  im:S11                  re:S12                  im:S12                  re:S13                  im:S13                  re:S14                  im:S14
!                         re:S21                  im:S21                  re:S22                  im:S22                  re:S23                  im:S23                  re:S24                  im:S24
!                         re:S31                  im:S31                  re:S32                  im:S32                  re:S33                  im:S33                  re:S34                  im:S34
!                         re:S41                  im:S41                  re:S42                  im:S42                  re:S43                  im:S43                  re:S44                  im:S44
! 
 5.000000000000000E4     3.577290705467175E-3    3.391435743389280E-4    9.968199557487512E-1   -1.529867737274725E-4    1.104265872632035E-5   -7.157491503979898E-6   -1.207174311401429E-5    8.321611023696038E-6
                         9.970470311740673E-1   -1.208873141553286E-4    3.932466084205689E-3    2.917899773672370E-4   -1.146351192849977E-5    6.695044245865920E-6    1.211857017124505E-5   -5.455834590835237E-6
                         1.168257167075744E-5   -6.663670893585747E-6   -1.123564752586780E-5    8.066071145043614E-6    1.027093562985218E-3    2.877511732729611E-4    9.999319205783002E-1   -2.763240147066689E-4
                        -1.205844435757332E-5    9.318690901657803E-6    8.790453121099123E-6   -8.305515759294891E-6    1.000681199083367      -4.641848754803102E-5    1.095106316152751E-3    1.650581459434971E-4

 5.013263354024213E4     3.537303522737282E-3    3.612203583231527E-4    9.967532053052170E-1   -9.381078005979022E-5    1.294242952542752E-5   -9.061410582516286E-6   -1.005790452937876E-5    7.537609558680189E-6
                         9.970565872608038E-1   -2.359032001439794E-5    3.959570615555990E-3    2.213746494824676E-4   -9.944200146763841E-6    5.656883745672120E-6    1.165250307135708E-5   -5.145436691353650E-6
                         1.295053721469524E-5   -4.262893161050349E-6   -1.235170196296797E-5    7.274885629298588E-6    1.022914308715987E-3    3.776894613594582E-4    9.998545384456470E-1   -2.812508688355469E-4
                        -1.113030983343469E-5    8.684474061574542E-6    1.314858395036838E-5   -9.907820526380743E-6    1.000533174293304       1.065397798757864E-4    1.019657512713069E-3    1.875741000324810E-4

 5.026561891360422E4     3.516265699298150E-3    3.513896278289505E-4    9.969220321871115E-1   -8.979583580042875E-5    8.791678468987185E-6   -7.298891737844331E-6   -9.579122438863862E-6    8.026972909266484E-6
                         9.970607723065161E-1   -9.176921347634571E-5    4.005406936432308E-3    2.398900743263705E-4   -1.263901333798051E-5    6.600114256908844E-6    1.079846902296284E-5   -6.075510559181456E-6
                         1.014432745967852E-5   -7.734373365728990E-6   -1.215341584686917E-5    9.225759405760668E-6    9.588476868332776E-4    3.680297863347469E-4    9.999153689211606E-1   -2.261684976692196E-4
                        -9.910684837039850E-6    7.418749269294760E-6    1.273275001632842E-5   -6.808456548470449E-6    1.000602222420850       5.387663743036017E-5    1.076993405287063E-3    1.680683991082445E-4

 5.039895705338368E4     3.545768488889076E-3    3.305281972637761E-4    9.968701262373074E-1   -1.926130246937218E-4    1.026075489301607E-5   -6.172299623921154E-6   -9.151944053686175E-6    7.142472089700960E-6
                         9.970567237516927E-1   -2.200508853169826E-5    3.946292267157557E-3    1.920460870443177E-4   -1.086620409595795E-5    8.870260713546507E-6    1.010137143810765E-5   -4.338655154064982E-6
                         1.194089220379214E-5   -5.042138801103644E-6   -1.017685036618474E-5    7.472238499307044E-6    1.015888036688840E-3    3.432907580081249E-4    9.998999373624284E-1   -2.054161439417408E-4
                        -1.207074834689614E-5    8.547926264138471E-6    1.067666862015791E-5   -7.098182435162411E-6    1.000546798746298      -2.863675915478891E-5    1.070829773467262E-3    2.128863535496893E-4

 5.053264889535372E4     3.498434942558434E-3    4.512500628159359E-4    9.968455845211730E-1   -1.596899938885306E-4    9.739104012498849E-6   -3.901131231164063E-6   -1.038090990690450E-5    1.243377303242040E-5
                         9.969356103463254E-1   -8.312749695819948E-5    3.957783247520223E-3    2.496089129176048E-4   -1.491443000949267E-5    8.326201277828588E-6    1.256727997052349E-5   -6.681244543186574E-6
                         1.244539236554044E-5   -6.755055977418036E-6   -1.448664921471517E-5    9.878737485829049E-6    9.914282271517169E-4    3.988386306005809E-4    9.999677780231442E-1   -2.802502290955769E-4
                        -1.407767725150963E-5    7.879432382510281E-6    9.757911525856838E-6   -5.157916564148243E-6    1.000371051048903      -2.348179724624862E-6    9.727753008072621E-4    1.200963630998725E-4

 5.066669537776979E4     3.528199735245761E-3    3.967499448405599E-4    9.968515255804244E-1   -1.281460364582240E-4    1.291381591694653E-5   -7.308643287178683E-6   -1.328567332243326E-5    8.672203164586494E-6
                         9.971042985221480E-1    1.440226132251226E-5    3.933587875264814E-3    2.363287406997470E-4   -1.311573993097638E-5    9.428973262638405E-6    1.269129845379151E-5   -6.291292641640336E-6
                         8.186112186511758E-6   -6.407841788401442E-6   -9.625309533991788E-6    7.995949209113574E-6    1.011723715139312E-3    3.614877772538660E-4    9.999544615021396E-1   -1.870192572967892E-4
                        -1.228195403155400E-5    8.208117946928984E-6    1.082968200722882E-5   -6.132945710463086E-6    1.000469182963832       3.689485608753755E-5    1.092025916205802E-3    1.792464663436924E-4

 5.080109744137627E4     3.455333339898048E-3    3.568109046711171E-4    9.968183140421273E-1   -1.285469098872178E-4    1.314203364049993E-5   -8.518567809814839E-6   -1.266119326577467E-5    7.795782876927361E-6
                         9.970996407191125E-1   -2.939012064003072E-5    3.942361012556612E-3    2.013221270422550E-4   -1.188159080674895E-5    8.843615276701734E-6    1.154989361706292E-5   -7.366787936418960E-6
                         1.143952370638306E-5   -2.189317842656403E-6   -9.427411870867101E-6    6.414200732097472E-6    9.063880750211400E-4    3.607846527730346E-4    9.998821971245734E-1   -2.707562457040701E-4
                        -1.054866811752752E-5    1.345552236495109E-5    1.095456469229999E-5   -8.276282791641587E-6    1.000387942195776      -3.815420085538894E-5    1.023794351420552E-3    1.265290998606199E-4

 5.093585602941308E4     3.489389105811212E-3    3.498548950144723E-4    9.969063858680958E-1   -1.344004307203998E-4    1.114320162949244E-5   -5.912815249689859E-6   -9.761009973244922E-6    8.201162917589184E-6
                         9.971383644521026E-1    5.360491796456392E-5    3.976965585699273E-3    1.669217257934986E-4   -1.113213478829164E-5    9.869088214076401E-6    9.784418372551147E-6   -1.904659616270285E-6
                         9.701414895567900E-6   -5.613938167017338E-6   -1.131310838495335E-5    1.164054020589369E-5    1.029388381099436E-3    3.007335764187698E-4    9.999892093776364E-1   -2.660001731820195E-4
                        -1.285271368682501E-5    8.403657567146190E-6    1.218262734609628E-5   -4.640775034943671E-6    1.000346929346913       9.485759300044067E-5    1.047872953804723E-3    1.380921496001739E-4

 5.107097208762198E4     3.464260703160965E-3    3.921370094132226E-4    9.969007136444055E-1   -1.463478947940548E-4    1.036398323009146E-5   -8.319052219595030E-6   -1.230511140474857E-5    1.311169869104698E-5
                         9.970885686818897E-1   -7.006398032478710E-5    3.928848569933444E-3    2.211709892343951E-4   -1.180309869483820E-5    9.188324461085140E-6    1.049354566133050E-5   -7.136327799902026E-6
                         1.132647001699804E-5   -7.375115349822325E-6   -1.233738380011862E-5    5.740783825479817E-6    9.424264955445929E-4    4.058871235135906E-4    9.999854175117567E-1   -2.455079205239796E-4
                        -9.865468791461153E-6    8.794591607149867E-6    1.254948985600311E-5   -7.766071419944960E-6    1.000331328660512      -3.637460105780100E-5    1.038376376786198E-3    1.063433466886046E-4

 5.120644656425375E4     3.504738875727946E-3    3.375128889612506E-4    9.968726469062968E-1   -1.522362154922458E-4    1.304235397558719E-5   -6.550545463829766E-6   -1.182406398575260E-5    4.099137804330346E-6
                         9.970888322874762E-1   -1.224018633023412E-4    3.911664925729425E-3    2.073825959074382E-4   -7.136535955651419E-6    1.140234956588804E-5    1.352215934886009E-5   -3.311832568346929E-6
                         1.086700319280935E-5   -5.572805878690765E-6   -1.632180318037524E-5    1.089398464966931E-5    9.331395637486721E-4    3.532673129784196E-4    9.999542529552738E-1   -2.730173828877754E-4
                        -1.231770170507951E-5    8.118533456597339E-6    6.750227887532930E-6   -7.285792343719997E-6    1.000264541905171      -1.062311347050798E-4    1.066515185460994E-3    1.565205643359054E-4

 5.134228041007449E4     3.514310109976112E-3    3.382453962173110E-4    9.969555848750953E-1   -2.821797436874106E-4    1.272938102012219E-5   -1.310477148400487E-6   -1.217660408289420E-5    1.178828651778742E-5
                         9.971159564409547E-1   -3.026045123200253E-5    3.843002285671897E-3    2.404377252349343E-4   -1.248483584529344E-5    6.747291446542245E-6    1.127951825760940E-5   -5.780909530702685E-6
                         1.157621224985322E-5   -5.041908278076417E-6   -9.040857639203342E-6    6.457188987153724E-6    9.476622371280209E-4    3.604730243084479E-4    1.000013934155537      -2.342646756420104E-4
                        -1.072429399425511E-5    9.874748924688420E-6    1.229671889189554E-5   -7.244531923411450E-6    1.000212633460828      -3.734091794388215E-5    1.066393161276988E-3    9.580355325328805E-5

 5.147847457837234E4     3.555313261815838E-3    3.793011731412485E-4    9.968157607263163E-1   -1.798958152617667E-4    1.053653704420560E-5   -2.994361302680652E-6   -9.550689411491243E-6    1.197560125179447E-5
                         9.971204897816608E-1   -9.349676586963777E-6    3.915803842085987E-3    2.513787735075022E-4   -9.387494060674972E-6    1.088971860043749E-5    1.066274224275869E-5   -4.260619639107408E-6
                         1.191342592970631E-5   -6.067003657761232E-6   -1.254697758045528E-5    8.800141119058995E-6    9.758307067628618E-4    2.841160471607807E-4    9.999991350251203E-1   -2.905112885320384E-4
                        -1.025277251839805E-5    5.186430518386889E-6    1.101763098678956E-5   -4.439800756273122E-6    1.000254128067819      -3.860555857564712E-5    1.055191685523683E-3    1.072936262607776E-4

 5.161503002496423E4     3.506796889524362E-3    3.169944103700548E-4    9.968309948490282E-1   -2.366114538166694E-4    1.292957683128547E-5   -7.205711788435071E-6   -1.125331230661224E-5    7.531073006705536E-6
                         9.971431657395420E-1   -1.396488817566308E-4    3.902843116089499E-3    2.248341489025286E-4   -9.422257736941148E-6    7.376246928442453E-6    9.196666075067297E-6   -3.965824176381657E-6
                         1.092129699994599E-5   -9.551580794896996E-6   -1.077152044241808E-5    7.816942541767326E-6    9.320871823965070E-4    3.921477193827051E-4    9.998717489278757E-1   -2.647894835704340E-4
                        -1.059043544509757E-5    6.989629482165769E-6    1.175264655058238E-5   -8.781703673145258E-6    1.000193243192804      -9.695825369766310E-5    1.049155394951291E-3    1.692971190642264E-4

 5.175194770820254E4     3.526684718217474E-3    3.568944595573043E-4    9.968777528964534E-1   -2.088215396390552E-4    1.231674794036293E-5   -6.793832040064808E-6   -1.237923506421563E-5    6.370142688626016E-6
                         9.969727533541144E-1    1.995967288098070E-5    3.855987197972523E-3    1.768449373136974E-4   -1.188347905022274E-5    6.010933411028436E-6    1.185589599816023E-5   -8.565477028573571E-6
                         1.082012972032948E-5   -5.942400258656670E-6   -8.728691273902576E-6    7.075393969249032E-6    9.443177483294562E-4    2.964727745322358E-4    9.999408126841290E-1   -2.946334831863260E-4
                        -1.205120642252487E-5    9.105900544446282E-6    1.046334245290826E-5   -5.237971929433125E-6    1.000083567568134      -1.141263444898494E-4    1.030845175411484E-3    1.277182088937244E-4

 5.188922858898184E4     3.571593179560433E-3    3.472790491265340E-4    9.968584734899408E-1   -1.422654846963255E-4    7.591207131843250E-6   -4.800428852137971E-6   -1.318286282214339E-5    8.971472113373588E-6
                         9.971831780955782E-1   -7.769068996557684E-5    3.948020175705642E-3    2.835145606884869E-4   -1.303960263886181E-5    9.477517432919666E-6    1.178488140274004E-5   -3.024796170181846E-6
                         1.194287542150119E-5   -7.576475728054459E-6   -1.014315701613767E-5    8.193321068784248E-6    9.588760677144369E-4    3.109450386531845E-4    9.999155479696118E-1   -2.654223511163454E-4
                        -9.640717264925731E-6    8.449924294222026E-6    1.140979983534030E-5   -6.850643132799546E-6    1.000101089678129      -1.024064507524326E-4    1.086351770363416E-3    1.538125533034557E-4

 5.202687363074564E4     3.543130784807700E-3    3.131577520118609E-4    9.969596222965593E-1   -2.205312972791091E-4    1.068270748251225E-5   -7.237666569562273E-6   -1.067277261300462E-5    7.797532852742795E-6
                         9.971635668604965E-1   -1.243772489457901E-4    3.926548010342104E-3    2.004482237864755E-4   -1.067966154558533E-5    6.473254887175011E-6    1.059982196145767E-5   -5.631736869195955E-6
                         1.061150736202687E-5   -3.286516038977720E-6   -1.023200468540029E-5    9.294865224353401E-6    9.416012238299428E-4    3.321990498278014E-4    9.999347273917765E-1   -2.590127833725175E-4
                        -1.278750109787277E-5    8.209675323613729E-6    9.173174354418117E-6   -8.259682526079689E-6    1.000094002682925      -9.987156722937729E-5    9.816938649112382E-4    1.458420080880283E-4

 5.216488379949316E4     3.585888262980166E-3    2.732630262303943E-4    9.968113900129862E-1   -2.501194230932357E-4    1.233632427709350E-5   -5.429383810223075E-6   -1.104782977406613E-5    8.514711640927841E-6
                         9.971303135096159E-1   -9.589885523618758E-5    3.917526320297359E-3    2.436692093897236E-4   -1.167838848308693E-5    9.526180991138867E-6    1.236681623385023E-5   -9.034992108099084E-6
                         1.355888171748633E-5   -2.076365172917832E-6   -1.196637664079926E-5    7.115066982154849E-6    9.263289352223686E-4    3.171851494318767E-4    9.998774398521093E-1   -2.839402031189914E-4
                        -1.131600130408931E-5    1.070316176970161E-5    8.331899217694519E-6   -5.135100298255351E-6    1.000005235341622      -9.553150781215828E-5    9.934022023565933E-4    1.555887999316754E-4

 5.230326006378610E4     3.580780245013120E-3    3.010679126378178E-4    9.969065529117680E-1   -7.293105954530350E-5    1.251299704784556E-5   -4.589047787355856E-6   -1.154857647262310E-5    1.031370155009691E-5
                         9.971220208554001E-1   -5.876763397113788E-5    3.988654448469763E-3    2.070639883569446E-4   -1.174668034596113E-5    9.724415547683754E-6    7.060997318920819E-6   -5.016332835453747E-6
                         1.019247099514207E-5   -4.596130039659367E-6   -1.018739854147278E-5    7.229808937257234E-6    9.278868844552729E-4    3.330466609369031E-4    9.999014136314365E-1   -2.754170585529637E-4
                        -1.327041141157866E-5    7.311464633071186E-6    9.543684740139017E-6   -8.378536202713730E-6    1.000005078911926      -9.427100395367539E-5    1.037799581032384E-3    1.262607911791511E-4

 5.244200339475540E4     3.568493878068195E-3    2.954188626196597E-4    9.968574055183210E-1   -1.891379350361296E-4    1.050227769133464E-5   -4.862592097239782E-6   -1.011102113247985E-5    1.053440836771642E-5
                         9.971679252533248E-1   -1.114704387089805E-4    3.901753320723567E-3    1.862184284239486E-4   -8.769132396410545E-6    1.139697163350020E-5    1.165736647063280E-5   -4.181236982025213E-6
                         1.420503840793841E-5   -6.780235116683817E-6   -9.370849421073003E-6    7.610556617598808E-6    9.333795017399360E-4    2.830789832442677E-4    9.999254644170801E-1   -2.516564863179332E-4
                        -1.396426235546828E-5    7.969201354996544E-6    1.349968828202886E-5   -8.259066821255130E-6    1.000049423698545      -1.857381016064142E-4    1.041435603901316E-3    1.010581749786755E-4

 5.258111476610824E4     3.524454128771661E-3    3.123739673195523E-4    9.968638974105768E-1   -1.665172959043442E-4    1.450782477943308E-5   -8.189634040459594E-6   -8.553085475625246E-6    9.709389879027413E-6
                         9.971037265603647E-1   -1.117486057382917E-4    3.923713525552302E-3    1.964251519997464E-4   -6.798007782056064E-6    5.867547906399472E-6    1.208096515292833E-5   -5.262542650918893E-6
                         1.235994363530287E-5   -6.851269164440795E-6   -1.486438912273296E-5    8.756605479905895E-6    9.937439349462444E-4    3.315696752807370E-4    9.999125172621721E-1   -2.746247183714779E-4
                        -1.416497975596240E-5    8.313395516798756E-6    7.903651145678836E-6   -5.874711940570954E-6    9.999855281215189E-1   -1.231009453532822E-4    9.949068361335002E-4    1.517783387245558E-4

 5.272059515413438E4     3.536577982036654E-3    3.158591593087355E-4    9.969613907412442E-1   -1.925992997734220E-4    1.322649154273229E-5   -4.308964537974278E-6   -1.085858538096101E-5    6.747853464859240E-6
                         9.971227687321325E-1   -1.193670568419607E-4    3.882004530015829E-3    2.163616469906055E-4   -1.016480730114192E-5    7.159005304638253E-6    1.053566263718176E-5   -5.096423184170346E-6
                         1.304232355260646E-5   -5.128233613392612E-6   -1.042034271689690E-5    7.481035376606515E-6    9.258352442614074E-4    3.239646962677968E-4    9.999637232478498E-1   -3.209882282763047E-4
                        -1.031174179699988E-5    4.459740248617535E-6    1.501974384919469E-5   -5.776342520677764E-6    1.000020886093046      -1.637875857534201E-4    1.019561264015983E-3    1.132954790537110E-4

 5.286044553771368E4     3.591902049259850E-3    3.364847022910497E-4    9.968554263715507E-1   -2.515358872310090E-4    1.081274637039664E-5   -5.387893911934430E-6   -1.251755139611006E-5    7.349664290253187E-6
                         9.971439337150402E-1   -8.699028625231469E-5    3.865701936464272E-3    2.855019445819901E-4   -1.136674924058539E-5    5.271431852649604E-6    1.099519114386628E-5   -8.115410256912595E-6
                         1.352392834675597E-5   -4.691987650632319E-6   -1.053282268969096E-5    7.713753242067832E-6    9.537069042261907E-4    3.622697040595834E-4    9.999906524135884E-1   -2.763877132887787E-4
                        -8.499949423314599E-6    8.579566288988697E-6    1.319624996283412E-5   -6.788263999575949E-6    9.999811186762084E-1   -8.843504884380661E-5    1.035085504445344E-3    9.420756115818231E-5

