#  HZ   S   RI   R     50.00 
! Rohde & Schwarz Vector Network Analyzer 
! Rohde-Schwarz,ZNB8-4Port,1311601044102771,3.45
! Created: UTC 10/24/2024, 3:18:50 PM
!The following Port Impedance Renormalization has been used when saving the data.
!PortZ  Port1:50+j0    Port2:50+j0    Port3:50+j0    Port4:50+j0
! freq[Hz]                re:S11                  im:S11                  re:S12                  im:S12                  re:S13                  im:S13                  re:S14                  im:S14
!                         re:S21                  im:S21                  re:S22                  im:S22                  re:S23                  im:S23                  re:S24                  im:S24
!                         re:S31                  im:S31                  re:S32                  im:S32                  re:S33                  im:S33                  re:S34                  im:S34
!                         re:S41                  im:S41                  re:S42                  im:S42                  re:S43                  im:S43                  re:S44                  im:S44
! 
 5.000000000000000E4     4.649266578394297E-3    3.538110308310348E-2    9.959745877978168E-1   -3.540844931278180E-2    2.645475190500156E-3    3.413159539638391E-2   -2.735182612473637E-3   -3.448201653638115E-2
                         9.958994114633997E-1   -3.496323575025401E-2    4.697526058848231E-3    3.573143063919495E-2   -2.671225318507968E-3   -3.407598295641467E-2    2.753232000801499E-3    3.448394233566188E-2
                         2.633231918768928E-3    3.427484030437303E-2   -2.618803222699124E-3   -3.409441273781452E-2    3.375012346099663E-3    3.583424044639767E-2    9.975282104081927E-1   -3.561275082537745E-2
                        -2.626586711705014E-3   -3.425860133304636E-2    2.644000476702185E-3    3.415873654802000E-2    9.982515232912529E-1   -3.545007336729398E-2    3.479843578266964E-3    3.576779738540051E-2

 5.013263354024213E4     4.633246329494151E-3    3.552971593068067E-2    9.958912190559568E-1   -3.543051964373369E-2    2.680887068350760E-3    3.426466535432376E-2   -2.753705606983936E-3   -3.455826460445140E-2
                         9.959290598762365E-1   -3.509114660050559E-2    4.672322334177180E-3    3.580229939925385E-2   -2.647071548291924E-3   -3.422139192791555E-2    2.755642722055910E-3    3.460167454369875E-2
                         2.646486134155575E-3    3.439582935645815E-2   -2.626216754788327E-3   -3.418684894781433E-2    3.386061307509376E-3    3.603445853392888E-2    9.974540763855854E-1   -3.569120968238434E-2
                        -2.646074295159578E-3   -3.434835069906441E-2    2.678755593715561E-3    3.423535732405942E-2    9.981053246055478E-1   -3.548095142796516E-2    3.474986177909844E-3    3.587221617568839E-2

 5.026561891360422E4     4.614374890464346E-3    3.561448367960506E-2    9.959473046340632E-1   -3.555224929612817E-2    2.689324518739187E-3    3.433963238657921E-2   -2.752017095868096E-3   -3.467622989585807E-2
                         9.958723076328583E-1   -3.519681529178625E-2    4.738669991696659E-3    3.588932501527493E-2   -2.660111170873285E-3   -3.436313108378856E-2    2.739984584199524E-3    3.470921844365006E-2
                         2.676247722866101E-3    3.445995247341188E-2   -2.654514625811251E-3   -3.431060245252443E-2    3.336882213706462E-3    3.611965730021784E-2    9.974426400444105E-1   -3.575086213877265E-2
                        -2.659418687848291E-3   -3.445781108400580E-2    2.711717133726210E-3    3.435027800358705E-2    9.981098608269712E-1   -3.558427354410032E-2    3.442249408528279E-3    3.597900382618588E-2

 5.039895705338368E4     4.644839993972041E-3    3.570096602302043E-2    9.958720804511849E-1   -3.565337562583192E-2    2.721583736732363E-3    3.446165747819499E-2   -2.763813269640409E-3   -3.475269026613864E-2
                         9.959240210479885E-1   -3.518466422346238E-2    4.790908463773974E-3    3.595302558320320E-2   -2.721365783634391E-3   -3.444638027269412E-2    2.730528179443655E-3    3.473589706413532E-2
                         2.677408689284277E-3    3.455980101639519E-2   -2.698614675475597E-3   -3.440221319212980E-2    3.417391516424914E-3    3.623294468912524E-2    9.974597877073992E-1   -3.586297242288980E-2
                        -2.691644960793204E-3   -3.455710274190656E-2    2.690197718871467E-3    3.441074730707021E-2    9.980340603536162E-1   -3.571466143335401E-2    3.483050526742072E-3    3.608592275803520E-2

 5.053264889535372E4     4.590496460088896E-3    3.579635062140678E-2    9.958110368454296E-1   -3.579298064380922E-2    2.748522700659767E-3    3.453431451152541E-2   -2.757282462836090E-3   -3.485540089806347E-2
                         9.958039143027027E-1   -3.533954656584536E-2    4.752478658913017E-3    3.608544933300761E-2   -2.724327233519115E-3   -3.450623264843179E-2    2.794057511186365E-3    3.491358752366457E-2
                         2.731644518012795E-3    3.467443527137287E-2   -2.716150928218620E-3   -3.448639478331868E-2    3.427780149544294E-3    3.635599325873012E-2    9.974945524722039E-1   -3.595039324672885E-2
                        -2.707024410625626E-3   -3.465545420947372E-2    2.729960009902217E-3    3.451455580628993E-2    9.979310031753720E-1   -3.578243336770823E-2    3.440678512346917E-3    3.610301470538704E-2

 5.066669537776979E4     4.655848062951614E-3    3.592323552932492E-2    9.959287486259523E-1   -3.577528866823475E-2    2.771006526596505E-3    3.467559242399140E-2   -2.764385219714280E-3   -3.492929971557682E-2
                         9.958440703190554E-1   -3.533923630705734E-2    4.785704475945161E-3    3.623896359860160E-2   -2.733430962458669E-3   -3.456786730701922E-2    2.764203489001338E-3    3.496995757013344E-2
                         2.743172623597894E-3    3.475443740686859E-2   -2.687376848411618E-3   -3.460799348734229E-2    3.487070997980414E-3    3.639288885894847E-2    9.974637911799730E-1   -3.597307990473592E-2
                        -2.719568937291589E-3   -3.476543100255544E-2    2.730560450414280E-3    3.462328836936445E-2    9.980413097166427E-1   -3.581868510725372E-2    3.542600813951789E-3    3.624296229530856E-2

 5.080109744137627E4     4.629463730394152E-3    3.594823902960201E-2    9.958028325376169E-1   -3.596439206062836E-2    2.753095187640941E-3    3.474895079188342E-2   -2.786246110746674E-3   -3.501986334187394E-2
                         9.959020633209910E-1   -3.551191908171483E-2    4.787539123241261E-3    3.624457499201125E-2   -2.832393262841025E-3   -3.469047899733624E-2    2.768671476366174E-3    3.503519032535471E-2
                         2.747526616100312E-3    3.484568867121224E-2   -2.719088561475281E-3   -3.468408719343413E-2    3.393875906704231E-3    3.650037423917653E-2    9.973735199675249E-1   -3.617203348417507E-2
                        -2.712292703632106E-3   -3.484554929354610E-2    2.720157217656787E-3    3.473337982916706E-2    9.979050748088962E-1   -3.600342989101152E-2    3.482985632550777E-3    3.626306218354086E-2

 5.093585602941308E4     4.650545355111554E-3    3.605486037566921E-2    9.959188910369821E-1   -3.609515435895615E-2    2.773178798519598E-3    3.487575763122408E-2   -2.815728213840342E-3   -3.511170854629861E-2
                         9.959399601997398E-1   -3.550824598420080E-2    4.842662629443134E-3    3.630935311673494E-2   -2.745167958861777E-3   -3.475599559940333E-2    2.783683368818796E-3    3.515614544374340E-2
                         2.749574994320515E-3    3.492013749325945E-2   -2.691449690330831E-3   -3.481991314037051E-2    3.499532594346381E-3    3.655895641851397E-2    9.974297189591187E-1   -3.629234715571363E-2
                        -2.752437124624807E-3   -3.493248239168863E-2    2.765398804105152E-3    3.479974488088673E-2    9.978349914474895E-1   -3.603169213641960E-2    3.507339094469975E-3    3.639894176864049E-2

 5.107097208762198E4     4.643442732309312E-3    3.618044143248325E-2    9.959324788250052E-1   -3.615976677313140E-2    2.827183784466945E-3    3.495023899364240E-2   -2.805210903020328E-3   -3.522542447571084E-2
                         9.958051181567271E-1   -3.571497727082785E-2    4.824653873233345E-3    3.644842533168898E-2   -2.787173875526188E-3   -3.494297166039463E-2    2.766625001296564E-3    3.523509360339449E-2
                         2.752656822643811E-3    3.506847561262465E-2   -2.741086755214945E-3   -3.486399142823891E-2    3.422685952598208E-3    3.673482441498507E-2    9.974957381829761E-1   -3.636483192580052E-2
                        -2.765494863663290E-3   -3.502824569263624E-2    2.770669565761506E-3    3.491393503110306E-2    9.977536959581290E-1   -3.628547759321210E-2    3.493095382974992E-3    3.641246289888096E-2

 5.120644656425375E4     4.720608337977474E-3    3.623646350198655E-2    9.958021179455093E-1   -3.632025413125953E-2    2.818286822824152E-3    3.503798006889430E-2   -2.841613220613396E-3   -3.529377331184452E-2
                         9.958583252674301E-1   -3.585481170659706E-2    4.797973852390518E-3    3.656956667406339E-2   -2.817785889513826E-3   -3.496823935505181E-2    2.827663117537620E-3    3.537553891928810E-2
                         2.760995887470702E-3    3.513225428375071E-2   -2.770046068500356E-3   -3.498937847851264E-2    3.405599795886354E-3    3.681547651042018E-2    9.974020092729278E-1   -3.644068824171207E-2
                        -2.791427420183207E-3   -3.510254331843526E-2    2.779611265300604E-3    3.496120565788534E-2    9.977180361972233E-1   -3.640093883464179E-2    3.549760526576329E-3    3.658661115600950E-2

 5.134228041007449E4     4.732411627873112E-3    3.634478604942317E-2    9.958870369633812E-1   -3.649183321137919E-2    2.819692994807476E-3    3.512411803366383E-2   -2.814110503439288E-3   -3.539055169053140E-2
                         9.958416044613416E-1   -3.581415906000181E-2    4.768223651949925E-3    3.661667384304648E-2   -2.794543195311323E-3   -3.507990729441719E-2    2.801312393787209E-3    3.541417635651439E-2
                         2.778428248803608E-3    3.521774779367998E-2   -2.785973291310323E-3   -3.505482648161824E-2    3.524949790349119E-3    3.689484451666644E-2    9.974240081276762E-1   -3.650512803647166E-2
                        -2.787604449934583E-3   -3.519665312276375E-2    2.822848814247422E-3    3.510782775108506E-2    9.976846357356830E-1   -3.636746051604861E-2    3.575776910543596E-3    3.658475203132967E-2

 5.147847457837234E4     4.715321044762369E-3    3.641313083398743E-2    9.958181369012639E-1   -3.648586350939220E-2    2.835047990156314E-3    3.520410181178082E-2   -2.833350249164195E-3   -3.547574025519244E-2
                         9.958419540122891E-1   -3.590870443172278E-2    4.857246166922418E-3    3.671766104642517E-2   -2.845827023157529E-3   -3.514605471158440E-2    2.801551654875722E-3    3.550082207657687E-2
                         2.804470397973161E-3    3.530823332222751E-2   -2.792455519429839E-3   -3.516225957979853E-2    3.502396095698416E-3    3.697143555092532E-2    9.974374737170618E-1   -3.662572671425562E-2
                        -2.788264859440891E-3   -3.528464918637671E-2    2.799592322727012E-3    3.520561079788936E-2    9.976787063631676E-1   -3.651288049212505E-2    3.560540586606010E-3    3.669972312903080E-2

 5.161503002496423E4     4.715821618896523E-3    3.650651605096922E-2    9.957380452489010E-1   -3.658525437814043E-2    2.854946722621465E-3    3.533313728369111E-2   -2.878773949033596E-3   -3.557520368455165E-2
                         9.957971403267858E-1   -3.611170632446217E-2    4.852939137971926E-3    3.689393986236830E-2   -2.804782786420521E-3   -3.526033536648580E-2    2.797949027347547E-3    3.557771870881637E-2
                         2.785482206544959E-3    3.540959619349313E-2   -2.822294263723278E-3   -3.523775573039033E-2    3.503276610380534E-3    3.710577827998882E-2    9.972764007867564E-1   -3.674857388170526E-2
                        -2.831633358896183E-3   -3.538170170461893E-2    2.820746906870801E-3    3.529038434448348E-2    9.975856482318475E-1   -3.667055808724204E-2    3.575573159615614E-3    3.682259590128294E-2

 5.175194770820254E4     4.776347892098798E-3    3.660449113572842E-2    9.957290871757098E-1   -3.671967796817269E-2    2.874429910608949E-3    3.540685553288997E-2   -2.881996126126101E-3   -3.566193126344284E-2
                         9.956489030364923E-1   -3.610410983011264E-2    4.835371015912786E-3    3.691698733378870E-2   -2.845827302410239E-3   -3.532703156213331E-2    2.872367692725625E-3    3.571560488676281E-2
                         2.832966964632700E-3    3.554489438952788E-2   -2.839234675641294E-3   -3.533337859193578E-2    3.508990120919556E-3    3.709570345622469E-2    9.973573854273614E-1   -3.691483143863030E-2
                        -2.841910506659061E-3   -3.544857391995496E-2    2.820498881474153E-3    3.536306728585929E-2    9.975133778776761E-1   -3.677452615307299E-2    3.566794194390182E-3    3.691375706217270E-2

 5.188922858898184E4     4.759966012056818E-3    3.669489094513220E-2    9.957060273658950E-1   -3.668175547456798E-2    2.874367995936347E-3    3.551667245318903E-2   -2.844924407339924E-3   -3.575601224334676E-2
                         9.958365022186357E-1   -3.634911127850346E-2    4.959658488351485E-3    3.705963683178892E-2   -2.859026570106029E-3   -3.545453878180346E-2    2.860011401750011E-3    3.579640092992030E-2
                         2.847250212731878E-3    3.562820194801371E-2   -2.857296261509130E-3   -3.544923943304544E-2    3.504467546596972E-3    3.726854991011749E-2    9.973533177229508E-1   -3.694184183491980E-2
                        -2.847522341306718E-3   -3.559194599437734E-2    2.870589520539194E-3    3.547858671532218E-2    9.974641506776944E-1   -3.691818078707872E-2    3.620504870184971E-3    3.699515790080087E-2

 5.202687363074564E4     4.827637100507010E-3    3.682455858431746E-2    9.957738132773695E-1   -3.683700954303492E-2    2.918954938330966E-3    3.562870872306597E-2   -2.884454247553352E-3   -3.586596295388599E-2
                         9.957668543684715E-1   -3.646616253646541E-2    4.905164326056539E-3    3.715040633323831E-2   -2.906375567153363E-3   -3.561659976057294E-2    2.887731549920511E-3    3.586034011055976E-2
                         2.837012509955431E-3    3.569613033197034E-2   -2.835011126204084E-3   -3.555374243121315E-2    3.536462747084770E-3    3.738382531578779E-2    9.973256234556992E-1   -3.701261682448198E-2
                        -2.870275021545554E-3   -3.567118915790221E-2    2.828688307595509E-3    3.557824485682375E-2    9.974470466547019E-1   -3.696977808146223E-2    3.604941420670582E-3    3.716164898736084E-2

 5.216488379949316E4     4.846471609341957E-3    3.683384571770972E-2    9.957527808141347E-1   -3.703732681724407E-2    2.897354063837786E-3    3.568530056259484E-2   -2.878682478885400E-3   -3.598755243145264E-2
                         9.958272747247447E-1   -3.653067361892297E-2    4.954340437931583E-3    3.722800301561016E-2   -2.936699782783211E-3   -3.565693242898073E-2    2.884486615219060E-3    3.599239519540193E-2
                         2.856390712474901E-3    3.578356020636055E-2   -2.872760794779890E-3   -3.563395111442451E-2    3.549698167346620E-3    3.746694622618629E-2    9.972272811250494E-1   -3.718683067398934E-2
                        -2.851533547677926E-3   -3.576754678717679E-2    2.889413812361040E-3    3.562557291345328E-2    9.974067158491440E-1   -3.710649138974141E-2    3.586757138728057E-3    3.722867461076699E-2

 5.230326006378610E4     4.842883563396345E-3    3.698514512745874E-2    9.957041286414037E-1   -3.695933236271744E-2    2.937673695751218E-3    3.577911396778862E-2   -2.927813496822718E-3   -3.608688486649402E-2
                         9.956727851215357E-1   -3.656668369792231E-2    5.004698205216280E-3    3.733440435195342E-2   -2.953992166474003E-3   -3.574051406673175E-2    2.935757911458639E-3    3.604871683639649E-2
                         2.917242507903048E-3    3.591040940023175E-2   -2.888340268706746E-3   -3.570874832862612E-2    3.586870306794700E-3    3.756529538329281E-2    9.972711031767059E-1   -3.718433729270161E-2
                        -2.864271466219535E-3   -3.587797984531463E-2    2.914218210976941E-3    3.575708146206531E-2    9.973524888291730E-1   -3.721851769191258E-2    3.634878953844154E-3    3.729731050511370E-2

 5.244200339475540E4     4.825623397146387E-3    3.702170762031413E-2    9.956252593744842E-1   -3.720762799752175E-2    2.957450799589529E-3    3.590771287294683E-2   -2.922627598267775E-3   -3.613799533225195E-2
                         9.957315286878294E-1   -3.670803467961849E-2    4.926394035367191E-3    3.742538799313076E-2   -2.940660896404360E-3   -3.582079666182747E-2    2.886795699686139E-3    3.617658791307306E-2
                         2.913598332763548E-3    3.601221975059221E-2   -2.925053484679311E-3   -3.580368497213430E-2    3.538913847686494E-3    3.760640217342595E-2    9.972972091485388E-1   -3.733626257372458E-2
                        -2.878551594287039E-3   -3.595719691290332E-2    2.908642126944198E-3    3.585026052814407E-2    9.973386890333430E-1   -3.733678532970192E-2    3.663382894251747E-3    3.739296626688411E-2

 5.258111476610824E4     4.905140762151882E-3    3.718819697019396E-2    9.957127728446611E-1   -3.722326768994454E-2    3.012486479884869E-3    3.599404811203690E-2   -2.940520456523374E-3   -3.620793730633658E-2
                         9.956048168410309E-1   -3.675720364239968E-2    4.999105083731428E-3    3.747494622051307E-2   -2.940839671538921E-3   -3.596962787303366E-2    2.933557722828111E-3    3.625888246610490E-2
                         2.930272184248168E-3    3.607804351194485E-2   -2.911581943927985E-3   -3.591227378630990E-2    3.708857455638764E-3    3.781818722438281E-2    9.972157942564965E-1   -3.744418057874862E-2
                        -2.911126774791975E-3   -3.603698731139528E-2    2.950307874476122E-3    3.596640278220160E-2    9.972212151107479E-1   -3.733428341245872E-2    3.633226005880813E-3    3.751656621065577E-2

 5.272059515413438E4     4.904445237650285E-3    3.732480340059008E-2    9.957057676058136E-1   -3.734278306727529E-2    3.003361657787531E-3    3.611728816116399E-2   -2.958335177627448E-3   -3.632868776370599E-2
                         9.956101246727491E-1   -3.685543203798271E-2    4.990172180490098E-3    3.764235467460657E-2   -3.015828194491386E-3   -3.608496250010949E-2    2.920279845057919E-3    3.630983962704419E-2
                         2.935176053462143E-3    3.615936542872500E-2   -2.932877684983818E-3   -3.604698351001420E-2    3.653544878105357E-3    3.789445110102353E-2    9.972409752661866E-1   -3.755589427322639E-2
                        -2.947831793766535E-3   -3.615157173514143E-2    2.952065182833613E-3    3.604642641324107E-2    9.972314698267275E-1   -3.752518072602649E-2    3.679240793349058E-3    3.764433587379260E-2

 5.286044553771368E4     4.911159709973403E-3    3.739903019404595E-2    9.955682366873686E-1   -3.755718850837989E-2    2.999063832196088E-3    3.621853927843949E-2   -3.011138515304486E-3   -3.643496675911657E-2
                         9.956073138710162E-1   -3.700322932060127E-2    4.964494670925886E-3    3.778921384588142E-2   -3.053599741020165E-3   -3.617628426940377E-2    2.982131813711609E-3    3.641625230473365E-2
                         2.938942837715551E-3    3.630057167951325E-2   -2.933858348194964E-3   -3.610936272974616E-2    3.653477769897903E-3    3.799715628208963E-2    9.972258694238887E-1   -3.768315773602059E-2
                        -2.942959468515516E-3   -3.623240967504966E-2    2.976802316642807E-3    3.610545095494046E-2    9.972347454943647E-1   -3.763726100713218E-2    3.663445816538607E-3    3.766020670203293E-2

