#  HZ   S   RI   R     50.0 
! Rohde & Schwarz ZVL 
! 
! 
! 
 9.000000000000000E3    -1.007132530212402   2.625050500341136E-3  
 9.231839956442169E3    -9.979488452275596E-1  -3.919924172770269E-3  
 9.469652109040238E3    -1.003381742371453  -5.800936643523798E-3  
 9.713590301538281E3    -1.002329786618551   1.177790923728188E-3  
 9.963812340694471E3    -9.935059547424318E-1  -1.603853573464316E-3  
 1.022048009836831E4    -9.941359559694927E-1   3.322208477570864E-3  
 1.048375961623762E4    -9.972173240449695E-1  -1.141509563225597E-3  
 1.075382121321303E4    -9.993765354156494E-1  -8.407698590108686E-4  
 1.103083959561949E4    -1.003683315383064   3.121817289554839E-3  
 1.131499397021604E4    -1.004609968927172   2.456082147779809E-3  
 1.160646816012696E4    -1.002943144904243   2.766691946453671E-3  
 1.190545072375933E4    -1.002724766731262   2.039027251542396E-3  
 1.221213507678385E4    -9.980767303042943E-1  -1.443036429325600E-3  
 1.252671961725802E4    -1.006566087404887   3.586420122948535E-3  
 1.284940785397228E4    -1.002619584401449   1.631818201094392E-3  
 1.318040853810257E4    -1.002942283948263   1.421967139044720E-3  
 1.351993579825409E4    -1.004927304055956   7.757102921226003E-4  
 1.386820927898388E4    -1.002022107442220  -2.640522522858994E-3  
 1.422545428289172E4    -1.003587418132358   1.821787846542363E-4  
 1.459190191637124E4    -1.001312679714627   3.652617785138003E-3  
 1.496778923911567E4    -9.988843467500477E-1   3.896817989802834E-5  
 1.535335941747480E4    -1.003387027316623  -3.832490331911849E-3  
 1.574886188176239E4    -1.001533256636726  -2.453069552134430E-3  
 1.615455248761589E4    -1.000144435299768   4.162154603841053E-3  
 1.657069368151273E4    -1.004988630612691   3.724287709317609E-3  
 1.699755467055034E4    -1.002344528834025   4.348782010840325E-3  
 1.743541159659965E4    -1.004426691267226   6.285984733910933E-3  
 1.788454771494486E4    -1.003395795822144   3.498225999445117E-3  
 1.834525357752494E4    -1.000979966587491   1.359584029396461E-3  
 1.881782722089538E4    -1.003390431404114   3.876973701753754E-3  
 1.930257435903189E4    -1.005351649390327   1.198634484391733E-3  
 1.979980858110074E4    -1.005166689554850   3.231396270774225E-3  
 2.030985155432360E4    -1.001288281546699   6.046624513789687E-4  
 2.083303323206819E4    -1.001800523863899   3.300854204434988E-3  
 2.136969206729940E4    -1.000894493526883   6.961995834509609E-4  
 2.192017523152888E4    -9.984705845514934E-1   7.764985692393419E-4  
 2.248483883940469E4    -1.002641214264764  -1.566184554966098E-3  
 2.306404817908656E4    -1.004966007338630   6.042474360973616E-3  
 2.365817794855539E4    -1.000052703751458   1.510879715336173E-3  
 2.426761249801029E4    -1.001379979981317   4.714331418703715E-3  
 2.489274607850964E4    -1.001295400990380   6.747315682856811E-3  
 2.553398309701716E4    -9.995869530571833E-1   2.758448219200429E-3  
 2.619173837801800E4    -1.001985973782010   3.272631619030607E-3  
 2.686643743187404E4    -1.001271102163527   4.368032088199988E-3  
 2.755851673009203E4    -1.001606040530735   5.672525853805644E-3  
 2.826842398768262E4    -1.001606159740024   3.919297495933788E-3  
 2.899661845279297E4    -1.001919057634142   2.724312730119524E-3  
 2.974357120380027E4    -1.006528615951538   2.540410646975599E-3  
 3.050976545405844E4    -1.003872334957123   2.563262556292902E-3  
 3.129569686449508E4    -1.003335158030192   1.469483986868920E-2  
 3.210187386426084E4    -1.014493743578593   2.216820101928174E-2  
 3.292881797963887E4    -1.006027672025893   1.066768638352495E-2  
 3.377706417142682E4    -1.003087414635552   1.047495019528580E-3  
 3.464716118100992E4    -1.013407972123888   5.559664315851505E-3  
 3.553967188534883E4    -1.012576699256897   6.351491007706610E-3  
 3.645517366111196E4    -9.842932356728450E-1   8.863086769898384E-3  
 3.739425875818795E4    -1.010313325458103   1.395308978715544E-2  
 3.835753468281967E4    -1.011343452665541   6.002869645617446E-3  
 3.934562459060788E4    -1.018686347537571   8.428686299721180E-3  
 4.035916768963860E4    -1.009484555986193   1.133048767823988E-2  
 4.139881965399504E4    -9.991466469234891E-1   1.663142323944355E-3  
 4.246525304792164E4    -9.933371080292597E-1   1.197240353788371E-2  
 4.355915776091452E4    -9.901988373862374E-1  -2.941608938881726E-3  
 4.468124145401984E4    -1.018839094373915   5.268302864590927E-3  
 4.583223001762895E4    -1.013887564341227  -4.357738387463787E-3  
 4.701286804106613E4    -1.004336045847999   1.511780965722858E-2  
 4.822391929427304E4    -1.002681559986538  -8.122142454438696E-4  
 4.946616722190136E4    -1.006137920750512   1.390780558883090E-2  
 5.074041545013322E4    -1.017036861843533   1.050958475902773E-2  
 5.204748830655727E4    -1.013793004883660   8.428919632798279E-3  
 5.338823135343688E4    -9.988926053047181E-1   9.952481257075974E-3  
 5.476351193471524E4    -1.017279571957058   1.658214650099035E-2  
 5.617421973711131E4    -1.003759503364563   1.484168913120617E-2  
 5.762126736566961E4    -1.009906782044305   1.872856863295554E-3  
 5.910559093413621E4    -1.006421248118083   1.702192667395409E-2  
 6.062815067054274E4    -1.001491685708364   7.253187154860747E-3  
 6.218993153839028E4    -9.958080914285449E-1   1.834078390737958E-2  
 6.379194387383493E4    -1.005879117382897   4.264802215829479E-3  
 6.543522403928728E4    -1.012762082947625   1.257583076373758E-2  
 6.712083509384860E4    -9.921348359849720E-1   1.166050510668453E-2  
 6.884986748101747E4    -1.011049575275845   5.728354537152900E-3  
 7.062343973411172E4    -1.007327702310350   1.083925268297956E-2  
 7.244269919986201E4    -1.004493435223897   3.770567320386219E-3  
 7.430882278064525E4    -1.002494944466485   1.524810883877520E-2  
 7.622301769583787E4    -1.004056453704834   4.677647750195856E-3  
 7.818652226278161E4    -1.004642234908210   1.268706561118421E-2  
 8.020060669786694E4    -1.002482877837287   6.406773971905866E-3  
 8.226657393825238E4    -1.003770815001594   2.514187349147082E-3  
 8.438576048475136E4    -1.004479540718926   1.493665034081293E-2  
 8.655953726643181E4    -1.016835835244921   2.980222932895513E-2  
 8.878931052748779E4    -9.985741641786364E-1   6.142045621140804E-3  
 9.107652273695701E4    -1.012083093325297   1.171127929076173E-2  
 9.342265352187259E4    -1.012214091089037   3.983883375222255E-3  
 9.582922062445289E4    -1.000643756654528   1.171337625029253E-2  
 9.829778088394846E4    -9.983575211630928E-1   7.877393567218496E-3  
 1.008299312437814E5    -9.998115168677437E-1   2.757558223342999E-2  
 1.034273097846286E5    -1.001133984989590   1.132878622574127E-2  
 1.060915967841174E5    -1.005231916904450   1.790306739595704E-2  
 1.088245158038185E5    -9.984772801399232E-1   5.147945920990251E-3  
 1.116278348042405E5    -1.003511654006110   9.928886245555317E-3  
 1.145033672885459E5    -1.004673004150391   1.701365494389909E-2  
 1.174529734757301E5    -1.023281799422370   2.329453056655148E-2  
 1.204785615040208E5    -1.000311507119073   1.384426842588411E-2  
 1.235820886652772E5    -1.006437758604686   2.152153329625993E-2  
 1.267655626711872E5    -1.005070169766744   1.105473154394251E-2  
 1.300310429520822E5    -1.003364602724711   1.998389773034281E-2  
 1.333806419892089E5    -1.017557925648160   2.043274668913338E-2  
 1.368165266813208E5    -1.014803396330940   2.497911051936459E-2  
 1.403409197464726E5    -1.004313045077854   1.591037828085071E-2  
 1.439561011599255E5    -1.015081908967760   2.866416062593337E-2  
 1.476644096290924E5    -9.996183183458117E-1   2.574175054246684E-2  
 1.514682441064776E5    -1.009737080997891   3.158289644705947E-2  
 1.553700653415906E5    -1.008332053820292   1.482845811693455E-2  
 1.593723974728363E5    -9.972739617029827E-1   3.522110298873010E-2  
 1.634778296604126E5    -1.002683851453993   3.313134358896235E-2  
 1.676890177612715E5    -9.947832226753236E-1   3.846974190802623E-2  
 1.720086860472274E5    -1.009824845525954   2.463494788398776E-2  
 1.764396289673234E5    -1.005681163734860   3.511688449283400E-2  
 1.809847129555964E5    -1.003899653752645   2.662001595558103E-2  
 1.856468782854101E5    -1.004293587472704   2.656522598084961E-2  
 1.904291409715561E5    -1.010032653808594   2.694868346958924E-2  
 1.953345947213523E5    -1.015733427471585   2.182045336173933E-2  
 2.003664129360019E5    -1.015390131208632   3.020114531483617E-2  
 2.055278507635082E5    -9.986822141541376E-1   3.308754355350752E-2  
 2.108222472044709E5    -1.002511262893677   3.940433243662393E-2  
 2.162530272721292E5    -1.017368992169698   3.721225518924119E-2  
 2.218237042080467E5    -9.920774035983616E-1   4.489909502630554E-2  
 2.275378817548727E5    -1.006064467959934   1.929324594887542E-2  
 2.333992564876497E5    -1.001327766312493   3.388983262083703E-2  
 2.394116202051754E5    -1.002212133672503   4.541034490050622E-2  
 2.455788623829662E5    -1.002353860272302   2.854030055093847E-2  
 2.519049726894088E5    -1.002999504407247   3.826123582466164E-2  
 2.583940435667287E5    -9.928296340836420E-1   3.047501567890687E-2  
 2.650502728784427E5    -9.998100466198392E-1   5.482870501704999E-2  
 2.718779666250119E5    -1.004020571708679   4.252093335203942E-2  
 2.788815417294484E5    -1.002831021944682   4.205794817766026E-2  
 2.860655288946795E5    -9.938049117724102E-1   4.492263239060067E-2  
 2.934345755345182E5    -1.008089131779141   4.956731690535404E-2  
 3.009934487801348E5    -1.002450135019091   4.223284537383605E-2  
 3.087470385639753E5    -1.010646382967631   4.601978431063568E-2  
 3.167003607831220E5    -9.998594919840496E-1   5.631511291693493E-2  
 3.248585605441418E5    -1.011407295862834   5.804878527275387E-2  
 3.332269154915218E5    -9.883429474300809E-1   6.105791296363270E-2  
 3.418108392218454E5    -9.987412028842504E-1   3.566011637952750E-2  
 3.506158847859180E5    -1.005357914500767   5.234293347502342E-2  
 3.596477482811068E5    -1.006447010570102   6.033784895410570E-2  
 3.689122725362197E5    -9.943817853927612E-1   5.901651650586504E-2  
 3.784154508913062E5    -9.974632859230042E-1   6.605040008013051E-2  
 3.881634310748267E5    -1.006872779793210   6.562952556385984E-2  
 3.981625191806968E5    -1.007526596387228   5.704251655692473E-2  
 4.084191837477809E5    -1.005335039562649   6.757808602858725E-2  
 4.189400599444733E5    -9.982100129127502E-1   5.916305291330483E-2  
 4.297319538610739E5    -1.000082082218594   6.754027627366929E-2  
 4.408018469127361E5    -1.000902679231432   6.360264807993596E-2  
 4.521569003558334E5    -1.000501142607795   7.487852378628367E-2  
 4.638044599206692E5    -1.003300673431820   7.144873043154706E-2  
 4.757520605635239E5    -9.992636442184448E-1   7.576924594019494E-2  
 4.880074313411149E5    -1.001125183370379   7.410003971361445E-2  
 5.005785004106236E5    -9.956572983000015E-1   7.157701026370844E-2  
 5.134734001585220E5    -1.002043525377909   7.858139610720560E-2  
 5.267004724615179E5    -9.940685563617283E-1   7.152282977535349E-2  
 5.402682740830232E5    -1.000797841284010   8.292379011777329E-2  
 5.541855822086337E5    -1.002921117676629   7.792767738850974E-2  
 5.684614001242034E5    -9.976973467402990E-1   8.365945009566075E-2  
 5.831049630401867E5    -1.004966947767470   8.996967272957240E-2  
 5.981257440660144E5    -1.002538018756443   1.007526805908957E-1  
 6.135334603383705E5    -9.964312314987183E-1   8.726633532110864E-2  
 6.293380793073329E5    -9.931400484508939E-1   9.852877635736423E-2  
 6.455498251844451E5    -9.974034693506030E-1   9.073949138869893E-2  
 6.621791855568908E5    -9.935209684901769E-1   1.022988101310507E-1  
 6.792369181720486E5    -9.946551124254864E-1   1.071130585436497E-1  
 6.967340578968176E5    -9.981108109156291E-1   1.040093672549856E-1  
 7.146819238562146E5    -9.919515781932408E-1   1.037875302115240E-1  
 7.330921267558624E5    -9.951372610198128E-1   1.081780000636750E-1  
 7.519765763931042E5    -9.986423783832128E-1   1.114703340741874E-1  
 7.713474893616051E5    -9.946380456288656E-1   1.163919965804722E-1  
 7.912173969544241E5    -9.932616551717123E-1   1.197378458923526E-1  
 8.115991532706685E5    -9.947819113731385E-1   1.207998019579225E-1  
 8.325059435309765E5    -9.936014612515769E-1   1.177174075521838E-1  
 8.539512926072064E5    -9.995127121607463E-1   1.276735398447995E-1  
 8.759490737718495E5    -9.941006435288324E-1   1.261598048541431E-1  
 8.985135176728299E5    -9.940949678421021E-1   1.333817974387455E-1  
 9.216592215394931E5    -9.940887888272604E-1   1.351110717700061E-1  
 9.454011586257418E5    -9.923642211490209E-1   1.378359278457604E-1  
 9.697546878964271E5    -9.896093010902405E-1   1.461839527911420E-1  
 9.947355639632600E5    -9.879097342491150E-1   1.436487563782425E-1  
 1.020359947276673E6    -9.913395577006871E-1   1.485776277547299E-1  
 1.046644414580224E6    -9.922142691082425E-1   1.488850414217540E-1  
 1.073605969634304E6    -9.905345903502572E-1   1.560840684693459E-1  
 1.101262054216089E6    -9.888227515750463E-1   1.681716101429580E-1  
 1.129630559402853E6    -9.888981514506871E-1   1.633926438885073E-1  
 1.158729837145931E6    -9.880802565150793E-1   1.696390248400296E-1  
 1.188578712142837E6    -9.875827497906157E-1   1.783929577472293E-1  
 1.219196494015202E6    -9.853540129131743E-1   1.801968011038856E-1  
 1.250602989800416E6    -9.851616091198393E-1   1.883143252740243E-1  
 1.282818516765057E6    -9.836309552192688E-1   1.895948440361652E-1  
 1.315863915548393E6    -9.797220958603754E-1   1.952473051689124E-1  
 1.349760563644455E6    -9.816132254070706E-1   2.003959441976836E-1  
 1.384530389231420E6    -9.799296127425301E-1   2.015852611710583E-1  
 1.420195885357228E6    -9.809852176242405E-1   2.101401694401269E-1  
 1.456780124490625E6    -9.769970443513659E-1   2.117901241805375E-1  
 1.494306773447038E6    -9.736458924081591E-1   2.180893573052577E-1  
 1.532800108698950E6    -9.717682467566597E-1   2.246009100185109E-1  
 1.572285032080651E6    -9.739780293570626E-1   2.280903657068369E-1  
 1.612787086897568E6    -9.726824760437013E-1   2.305682437312298E-1  
 1.654332474450549E6    -9.742839932441711E-1   2.403671907131276E-1  
 1.696948070985824E6    -9.701410531997681E-1   2.530949924472023E-1  
 1.740661445081600E6    -9.694014390309653E-1   2.586341812824554E-1  
 1.785500875482520E6    -9.676183395915562E-1   2.599639494850009E-1  
 1.831495369393555E6    -9.643527136908638E-1   2.664750148957784E-1  
 1.878674681245137E6    -9.641098578770957E-1   2.704908845478372E-1  
 1.927069331941679E6    -9.603378309143915E-1   2.767612372846388E-1  
 1.976710628605946E6    -9.591953953107200E-1   2.840551823188091E-1  
 2.027630684832032E6    -9.573007689581978E-1   2.947797166107431E-1  
 2.079862441460061E6    -9.527261786990697E-1   3.004463766113439E-1  
 2.133439687886039E6    -9.518957005606759E-1   3.095143398368839E-1  
 2.188397083920649E6    -9.490914411014981E-1   3.133714322267612E-1  
 2.244770182211130E6    -9.458281397819521E-1   3.202425050173519E-1  
 2.302595451240742E6    -9.477618866496618E-1   3.264482713465144E-1  
 2.361910298920697E6    -9.400415089395312E-1   3.394400327686306E-1  
 2.422753096789817E6    -9.394889341460335E-1   3.452178580720163E-1  
 2.485163204837581E6    -9.359084301524694E-1   3.545913740688028E-1  
 2.549180996966606E6    -9.320361150635614E-1   3.608879026721656E-1  
 2.614847887111044E6    -9.272786643770008E-1   3.712176947675981E-1  
 2.682206356027791E6    -9.268662598397998E-1   3.800484704517207E-1  
 2.751299978777834E6    -9.216660790973240E-1   3.858893758427373E-1  
 2.822173452915522E6    -9.152108099725512E-1   3.949633183604309E-1  
 2.894872627403987E6    -9.120160672399734E-1   4.044189683055602E-1  
 2.969444532275428E6    -9.062636163499621E-1   4.182331728079392E-1  
 3.045937409055447E6    -9.059923887252809E-1   4.248809114401000E-1  
 3.124400741971112E6    -9.001503719223871E-1   4.365813565988843E-1  
 3.204885289962941E6    -8.943229185210335E-1   4.452308078213467E-1  
 3.287443119521514E6    -8.881434732013280E-1   4.553077129803029E-1  
 3.372127638369955E6    -8.861011266708375E-1   4.655291489420279E-1  
 3.458993630014080E6    -8.756083846092224E-1   4.787601881269567E-1  
 3.548097289182547E6    -8.726948698361716E-1   4.870039902833082E-1  
 3.639496258179953E6    -8.631128403875564E-1   4.998443029977772E-1  
 3.733249664176384E6    -8.566457033157349E-1   5.109978521769014E-1  
 3.829418157457539E6    -8.483604325188532E-1   5.189213412624103E-1  
 3.928063950660184E6    -8.445192178090414E-1   5.314451239106277E-1  
 4.029250859018307E6    -8.372600078582765E-1   5.436963133794832E-1  
 4.133044341646016E6    -8.310005664825441E-1   5.557345899247038E-1  
 4.239511543883879E6    -8.219411373138430E-1   5.664761363265961E-1  
 4.348721340736114E6    -8.141173058085972E-1   5.781932313739402E-1  
 4.460744381426713E6    -8.055688937505088E-1   5.877341182267886E-1  
 4.575653135103337E6    -7.965181403689916E-1   5.996965811224968E-1  
 4.693521937718540E6    -7.862287892235651E-1   6.133749442650068E-1  
 4.814427040118654E6    -7.813233269585505E-1   6.243593922739600E-1  
 4.938446657371444E6    -7.655141750971477E-1   6.393641625311561E-1  
 5.065661019364440E6    -7.550529042879741E-1   6.536341385746536E-1  
 5.196152422706689E6    -7.465015053749085E-1   6.623512888459052E-1  
 5.330005283967488E6    -7.321071094936795E-1   6.799966333244036E-1  
 5.467306194286549E6    -7.207979891035292E-1   6.869571447649894E-1  
 5.608143975390925E6    -7.104415628645155E-1   7.006300275303272E-1  
 5.752609737054930E6    -6.948004298739964E-1   7.176448206509181E-1  
 5.900796936040220E6    -6.832080350981820E-1   7.270466515510518E-1  
 6.052801436554181E6    -6.692193547884624E-1   7.385780974201370E-1  
 6.208721572265715E6    -6.571679313977560E-1   7.497194338663378E-1  
 6.368658209918564E6    -6.418100330564711E-1   7.639270151840951E-1  
 6.532714814583295E6    -6.245051423708599E-1   7.762286281555435E-1  
 6.700997516590195E6    -6.071529785792034E-1   7.904197607158406E-1  
 6.873615180186345E6    -5.900082521968418E-1   8.029009733203731E-1  
 7.050679473961304E6    -5.763206150796679E-1   8.135919598423231E-1  
 7.232304943086958E6    -5.590953760676914E-1   8.251453902097949E-1  
 7.418609083418264E6    -5.431303580602011E-1   8.354573403160486E-1  
 7.609712417502838E6    -5.239720145861309E-1   8.461426496662564E-1  
 7.805738572548537E6    -5.064664946662056E-1   8.581711673278973E-1  
 8.006814360399493E6    -4.847679966025883E-1   8.709473028960306E-1  
 8.213069859572331E6    -4.685615830951267E-1   8.810259100180967E-1  
 8.424638499405636E6    -4.475713868935904E-1   8.901221259164016E-1  
 8.641657146377105E6    -4.271491997771794E-1   8.993927852249255E-1  
 8.864266192644240E6    -4.078737662898171E-1   9.106844499238452E-1  
 9.092609646865843E6    -3.844321502579584E-1   9.187708593928154E-1  
 9.326835227363067E6    -3.634496728579204E-1   9.289736724093427E-1  
 9.567094457680304E6    -3.391788734330072E-1   9.355865422619991E-1  
 9.813542764607716E6    -3.173933095402188E-1   9.455672147574593E-1  
 1.006633957872883E7    -2.917887369791667E-1   9.523627666298804E-1  
 1.032564843755822E7    -2.720383207003276E-1   9.587001244916111E-1  
 1.059163709133607E7    -2.439266724718942E-1   9.644507835707155E-1  
 1.086447761154792E7    -2.253838214609358E-1   9.724694113225461E-1  
 1.114434650223994E7    -1.964394615756141E-1   9.758609336065393E-1  
 1.143142481420169E7    -1.723726756042905E-1   9.821275296320079E-1  
 1.172589826209018E7    -1.500393218464322E-1   9.845940143088688E-1  
 1.202795734457110E7    -1.242395540078481E-1   9.869225751189353E-1  
 1.233779746755484E7    -9.979050689273411E-2   9.906548652265291E-1  
 1.265561907060709E7    -7.493367791175842E-2   9.917307204378520E-1  
