#  HZ   S   RI   R     50.0 
! Rohde & Schwarz ZVL6 2Ports - Version 3.32 - 1303.6509k06 SN: 100774
! Date: 2022-07-12 12:36:20
! Data & Calibration Information:
! Trc1:S11(TOSM) Trc2:S21(TOSM) Trc3:S12(TOSM) Trc4:S22(TOSM)
! 
! 
! 
 1.000000000000000E5     9.453220183638808E-1   2.292447811953887E-1   6.769214369796454E-2  -2.099779363510412E-1   6.360469492209300E-2  -2.077304893951468E-1   9.010847232532172E-1   1.925370202200803E-1  
 1.002406843177907E5     9.231932288608910E-1   2.343703252715904E-1   6.526918624167825E-2  -2.123403617123870E-1   6.291335326555873E-2  -2.180476664694836E-1   9.446065380108414E-1   1.862569366773707E-1  
 1.004819479249897E5     9.608793373168346E-1   2.302688382776920E-1   6.658023482937427E-2  -2.166413669882127E-1   6.388148883335849E-2  -2.126980029788254E-1   8.877370299007764E-1   2.231451630473960E-1  
 1.007237922158557E5     9.667509687150703E-1   1.751534014847372E-1   5.888711984374204E-2  -2.131299048445220E-1   5.079754988995867E-2  -2.176221150493317E-1   9.109367267125942E-1   1.926267653607739E-1  
 1.009662185880033E5     1.000974296805671   2.071444103838316E-1   6.043520412164698E-2  -2.178473160067728E-1   6.237302115139467E-2  -2.215682360536653E-1   9.038278562341087E-1   1.984990664794258E-1  
 1.012092284424109E5     9.559463797740019E-1   2.376134707457332E-1   6.980573248793964E-2  -2.081827396519641E-1   7.318328467911826E-2  -2.090729254510816E-1   8.734021172162459E-1   2.345153536897160E-1  
 1.014528231834287E5     9.564295742483862E-1   2.191011949206746E-1   6.498485813978600E-2  -2.124360394002179E-1   6.046170089453150E-2  -2.124563148768688E-1   9.196622003309782E-1   2.153893182945120E-1  
 1.016970042187871E5     9.098693109849733E-1   2.450588521845558E-1   7.068363532758376E-2  -2.000696948031069E-1   6.347945962463156E-2  -2.039444249186479E-1   8.800862378063011E-1   1.855769562304314E-1  
 1.019417729596047E5     9.420579940193969E-1   1.936333525536069E-1   6.739945015108058E-2  -2.104365543328530E-1   6.713476977538116E-2  -2.056262602908568E-1   8.914645666273351E-1   2.301700714663635E-1  
 1.021871308203962E5     9.574365951197881E-1   2.142743005396236E-1   6.547976528747632E-2  -2.141755071780848E-1   6.501260239838887E-2  -2.121493252541913E-1   9.196194498105945E-1   2.113128757034130E-1  
 1.024330792190812E5     9.477204934916405E-1   1.867608448998572E-1   6.158323909749888E-2  -2.048979729599920E-1   5.817960203256291E-2  -2.091436157328083E-1   8.893855487504799E-1   2.232006815643541E-1  
 1.026796195769916E5     9.630782099267627E-1   1.850766912817851E-1   5.834862214266519E-2  -2.125086929605337E-1   6.421946636088394E-2  -2.150656436959639E-1   9.175938104175235E-1   2.190014730581653E-1  
 1.029267533188805E5     9.358462770677889E-1   2.016972154388023E-1   7.179564841554513E-2  -2.074981095765088E-1   6.648586390144692E-2  -2.046765988699728E-1   9.052339769145763E-1   2.246790163299026E-1  
 1.031744818729302E5     9.310774278957889E-1   2.216333820313199E-1   6.814967861970782E-2  -2.013875744163627E-1   6.837567711159390E-2  -2.111854253537342E-1   9.044489045745614E-1   2.371063128266023E-1  
 1.034228066707601E5     9.517154049759307E-1   2.129553467303173E-1   6.926429175536199E-2  -2.074297098981334E-1   6.588460226306668E-2  -2.046844120835663E-1   8.975076406162648E-1   2.390561006595780E-1  
 1.036717291474356E5     9.270809335214280E-1   2.009159861046806E-1   5.759293727270941E-2  -2.130765661582632E-1   5.422721686068197E-2  -2.116495936107776E-1   9.487752045889353E-1   1.784490971951424E-1  
 1.039212507414759E5     9.520014524043805E-1   1.743050790908705E-1   5.694729914076763E-2  -2.119480827596742E-1   5.656884155256680E-2  -2.092375000085914E-1   9.105028833707827E-1   2.298862723315038E-1  
 1.041713728948625E5     9.336100277711625E-1   2.580553284027485E-1   6.752950396780029E-2  -2.109493477506184E-1   6.966569604317792E-2  -2.151038136564331E-1   9.099781557909088E-1   2.231524861184229E-1  
 1.044220970530477E5     9.473319037002075E-1   2.111201672018135E-1   6.069155804268903E-2  -2.121188808015850E-1   5.987250278335534E-2  -2.089207969307134E-1   9.307811351387224E-1   1.918326507311279E-1  
 1.046734246649626E5     9.378325723429578E-1   2.100481930036312E-1   6.105474159068680E-2  -2.027036967615568E-1   6.196372169774465E-2  -2.036282799693180E-1   8.974773642577077E-1   2.111113561033782E-1  
 1.049253571830256E5     9.685928017681421E-1   2.116641564133764E-1   6.580267215946009E-2  -2.024099972747881E-1   6.324556390804595E-2  -2.074389853352663E-1   8.915394428242376E-1   2.270702443062785E-1  
 1.051778960631509E5     9.480702125134353E-1   2.347978453254906E-1   6.623801073866641E-2  -2.102459508357935E-1   6.304292202760242E-2  -2.068510443172510E-1   9.321454273556286E-1   2.122189869390526E-1  
 1.054310427647571E5     9.441766140894035E-1   1.643506063445772E-1   5.441612266550172E-2  -2.046270779053670E-1   5.926224833517867E-2  -2.069788567926286E-1   9.127054453147155E-1   2.220655894920261E-1  
 1.056847987507751E5     9.256814052543678E-1   2.036274608405736E-1   6.507769108800129E-2  -2.034237862046095E-1   6.424165279186531E-2  -2.064600763608611E-1   9.281804718057209E-1   2.358942348089727E-1  
 1.059391654876568E5     9.541866587778189E-1   2.065562512099491E-1   6.541880753214598E-2  -2.045304034464567E-1   6.253005889940111E-2  -2.084098577367103E-1   9.052636018120533E-1   2.245706997064880E-1  
 1.061941444453839E5     9.381354143496968E-1   1.969678392743642E-1   5.917081275483637E-2  -2.057951608934490E-1   5.752373840933364E-2  -2.006995949038209E-1   9.075348215570145E-1   2.012871700438643E-1  
 1.064497370974759E5     9.371627208641702E-1   1.963259199084204E-1   6.198738827615707E-2  -2.035862501649428E-1   5.809148503608270E-2  -2.072428583434708E-1   9.447610718972235E-1   2.078370065973384E-1  
 1.067059449209990E5     9.717385818560315E-1   2.264488945315193E-1   6.477720707856896E-2  -2.106290152139090E-1   6.520773712365371E-2  -2.119120880348804E-1   9.481426265069899E-1   2.157997095567987E-1  
 1.069627693965742E5     9.470267082376753E-1   2.331737375062205E-1   6.922024002639744E-2  -1.994065943836157E-1   6.978877939462357E-2  -1.986199114524639E-1   9.070820429028808E-1   2.287021565307407E-1  
 1.072202120083863E5     9.460729197818337E-1   1.956599357847277E-1   6.486347862578824E-2  -2.029355650869296E-1   6.402227454293727E-2  -2.010739357908180E-1   8.947060199224191E-1   2.387934106121668E-1  
 1.074782742441924E5     9.701786187107108E-1   2.292946035361327E-1   7.177530523477479E-2  -2.117659546716571E-1   6.813290909223752E-2  -2.064009421901436E-1   9.227690563483363E-1   2.306586045684640E-1  
 1.077369575953302E5     9.363332665354934E-1   2.329456367836886E-1   7.142219864589931E-2  -2.015661058347537E-1   6.563829487419876E-2  -2.090015780529028E-1   9.316411262810433E-1   2.290400524615550E-1  
 1.079962635567270E5     9.251770669626460E-1   2.099520349374679E-1   6.430889132441996E-2  -1.991875897592589E-1   6.327335507015151E-2  -1.980113348227761E-1   9.090046239311559E-1   2.210887878984470E-1  
 1.082561936269079E5     9.561394722640187E-1   2.314318620995478E-1   5.602854858072579E-2  -2.047824492827727E-1   5.678754081655769E-2  -2.024728214503352E-1   9.337108363093770E-1   1.735142746258270E-1  
 1.085167493080050E5     9.828704520896558E-1   1.925285075129290E-1   5.388981480331846E-2  -2.048306192395858E-1   5.388371737778326E-2  -2.050053723028896E-1   9.239253383672192E-1   1.841242283517213E-1  
 1.087779321057656E5     9.370716818224643E-1   2.017293360870312E-1   6.164893603982143E-2  -2.062852056964813E-1   6.244978181474710E-2  -1.994767404097990E-1   9.347796943074522E-1   2.152217708091647E-1  
 1.090397435295611E5     9.187716131830881E-1   2.101998304129041E-1   6.238736322619287E-2  -2.001672037391240E-1   5.892533077443440E-2  -2.010998817583835E-1   9.282319448676807E-1   1.954670616090666E-1  
 1.093021850923960E5     9.449807224064131E-1   2.381054712304455E-1   6.412430603518882E-2  -2.029957883284138E-1   6.955558892497814E-2  -2.062451432319689E-1   9.372703477704356E-1   2.231644163079576E-1  
 1.095652583109159E5     9.477106492491398E-1   1.791178586429235E-1   4.862155095508852E-2  -2.038178678150115E-1   5.222374899757824E-2  -2.022527439827674E-1   9.554719060267022E-1   1.943195107638762E-1  
 1.098289647054171E5     9.522716269032336E-1   1.830553178059981E-1   5.826258903930168E-2  -1.993404016615270E-1   5.915235616657884E-2  -2.019306595761957E-1   9.283258173901254E-1   2.089537555801946E-1  
 1.100933057998549E5     9.814479061935841E-1   1.843149580169072E-1   6.056689520302196E-2  -2.082030306832858E-1   5.518520839332886E-2  -1.985608493018654E-1   9.027044946433342E-1   1.991775837800240E-1  
 1.103582831218525E5     9.605268554739311E-1   1.991677929978334E-1   6.197885791635160E-2  -2.024097832540391E-1   5.689260419050789E-2  -2.026472171342562E-1   9.459117601219264E-1   2.038783090907898E-1  
 1.106238982027098E5     9.762037471276344E-1   1.650887155002644E-1   5.346172767890321E-2  -2.058330492512267E-1   5.578599767325462E-2  -2.005134915927742E-1   9.033456674951206E-1   2.231339262085458E-1  
 1.108901525774125E5     9.523616682107672E-1   2.030198061904111E-1   6.005150144469935E-2  -2.004203005728786E-1   5.965324870398007E-2  -2.004770567802021E-1   9.426906075136701E-1   2.197185536274724E-1  
 1.111570477846404E5     9.420453688782033E-1   1.966290350655323E-1   5.570104848869459E-2  -1.952452280859470E-1   5.968525719806708E-2  -1.988327078412519E-1   9.373322821907417E-1   2.058209959877820E-1  
 1.114245853667771E5     9.329188421951435E-1   1.568155061836196E-1   4.884481335044806E-2  -1.989222234799217E-1   4.959953566228405E-2  -2.028625291999735E-1   9.522121111635037E-1   1.821928251062153E-1  
 1.116927668699183E5     9.339569331223379E-1   2.248977278447097E-1   6.337359429240543E-2  -1.922917512461991E-1   6.165372900212435E-2  -1.979238019948956E-1   9.215570891480251E-1   2.332285646233238E-1  
 1.119615938438807E5     9.414102151970650E-1   2.205809623545869E-1   6.021172002397008E-2  -2.011081262627403E-1   5.808601295744008E-2  -1.962038096677687E-1   9.171619371291638E-1   1.923658314862681E-1  
 1.122310678422114E5     9.496402488217313E-1   1.912272489979983E-1   5.808020717182472E-2  -1.980726071976158E-1   5.578203948001498E-2  -2.012908719926291E-1   9.479878634762537E-1   1.999510221567850E-1  
 1.125011904221966E5     9.632186963121694E-1   2.319597689881986E-1   6.066189494105506E-2  -2.062907915494397E-1   6.030075041104916E-2  -2.070521868948523E-1   9.651255922905742E-1   2.068791746320488E-1  
 1.127719631448706E5     9.683363250240081E-1   2.108596797823674E-1   6.039384439460687E-2  -2.008491740043367E-1   5.987103299208033E-2  -1.986374815524975E-1   9.346698877457559E-1   2.093151018491600E-1  
 1.130433875750250E5     9.508215062337819E-1   2.174438480231523E-1   6.768117819896584E-2  -1.978817116071323E-1   6.858347419515647E-2  -1.966349895881856E-1   9.291077306612031E-1   2.475234971812397E-1  
 1.133154652812174E5     9.384622812449961E-1   2.191642298860724E-1   6.097071154359915E-2  -1.983987176861918E-1   6.191721102514531E-2  -2.000143433329333E-1   9.563748406368682E-1   2.203941247440365E-1  
 1.135881978357808E5     9.324840568966661E-1   2.001712029566522E-1   6.133095237824565E-2  -1.943327644204854E-1   5.987216728819828E-2  -1.939423869950457E-1   9.244244074950208E-1   2.350837574017065E-1  
 1.138615868148326E5     9.772116025352875E-1   1.981207558616406E-1   5.531354800376129E-2  -2.022535935880960E-1   5.994186274015179E-2  -1.965893501119082E-1   9.166091947076220E-1   2.032000337945869E-1  
 1.141356337982835E5     9.544200524522361E-1   1.932045056923883E-1   5.208016103462839E-2  -2.005212800265563E-1   5.638086447214538E-2  -1.911582505525215E-1   9.378494514058824E-1   1.974764972633212E-1  
 1.144103403698470E5     9.508259399816453E-1   1.798108639446108E-1   5.435341061214630E-2  -1.998841986862542E-1   5.643260475253023E-2  -2.052723472970824E-1   9.811498596160262E-1   1.996344032674406E-1  
 1.146857081170481E5     9.346787785092898E-1   2.108423535288594E-1   6.171554124892741E-2  -1.917739031134184E-1   5.840636132275831E-2  -1.931080081505366E-1   9.243783640676072E-1   2.101999067280186E-1  
 1.149617386312331E5     9.589018685915511E-1   1.599131353785408E-1   4.973601151318315E-2  -2.022208573320755E-1   5.348690813347536E-2  -1.994718601732819E-1   9.517820315196166E-1   1.971635410961967E-1  
 1.152384335075779E5     9.589099161273834E-1   2.382544712514440E-1   6.320778396795190E-2  -1.973947267694728E-1   6.245259997262576E-2  -1.933597750296993E-1   9.239221697457885E-1   2.303465879871753E-1  
 1.155157943450983E5     9.433167456399307E-1   1.913928663724784E-1   5.858081922443387E-2  -1.922036375569313E-1   5.392656747348485E-2  -1.931047320529400E-1   9.388773485046572E-1   2.089625520966615E-1  
 1.157938227466583E5     9.390293743962579E-1   1.831476234665213E-1   5.866828638643812E-2  -1.909651974996013E-1   5.860195330010121E-2  -1.919718077269350E-1   9.261828647023437E-1   2.327834389218820E-1  
 1.160725203189798E5     9.551172662795531E-1   1.918938115735530E-1   5.975851133575511E-2  -1.957394499762595E-1   6.322141485691812E-2  -1.921286964134295E-1   9.281249699951740E-1   2.350418599408412E-1  
 1.163518886726520E5     9.220297701197494E-1   2.012262851263241E-1   5.506284925162186E-2  -1.864076807241550E-1   5.652158728366080E-2  -1.871508181537448E-1   9.377096445032290E-1   2.077850155347404E-1  
 1.166319294221403E5     9.334939670329496E-1   2.019739466615682E-1   5.687938974849122E-2  -1.936753561826020E-1   5.585725059765048E-2  -1.964880011147853E-1   9.568198764330056E-1   1.991149240734548E-1  
 1.169126441857961E5     9.598757129658512E-1   1.659402686003040E-1   5.702792991075373E-2  -1.962847360463720E-1   5.531289215579640E-2  -1.944317480581087E-1   9.584845791767505E-1   2.115765154032808E-1  
 1.171940345858657E5     9.633304370622451E-1   1.818670528829549E-1   5.501519660869358E-2  -1.965538915825680E-1   5.503616142082345E-2  -1.909442862458675E-1   9.257683100342592E-1   2.216159292844410E-1  
 1.174761022485001E5     9.453692739395955E-1   1.750631845327864E-1   5.732726421182525E-2  -1.898252199560367E-1   5.540381990465635E-2  -1.929652355157062E-1   9.272956914791402E-1   2.292195558809205E-1  
 1.177588488037640E5     9.837823249715889E-1   1.762918467832328E-1   5.163292031617082E-2  -1.965763274296516E-1   5.428590354324245E-2  -1.950598209175971E-1   9.359161716679716E-1   1.917905006901066E-1  
 1.180422758856455E5     9.765983154148676E-1   1.915803529690981E-1   5.627417087419085E-2  -1.924190823992108E-1   5.881091897193553E-2  -1.955359890098841E-1   9.371943145610867E-1   1.937189203804264E-1  
 1.183263851320654E5     9.289118252963950E-1   1.880769733668235E-1   5.850029950734158E-2  -1.896285364711525E-1   5.344706410389439E-2  -1.851008035882635E-1   9.552311650480259E-1   1.940905654088512E-1  
 1.186111781848869E5     9.525768067490363E-1   2.022044736216819E-1   5.685848366990054E-2  -1.918392540470781E-1   5.227681127464420E-2  -1.916198822407285E-1   9.511094854818500E-1   2.057546540587851E-1  
 1.188966566899247E5     9.714250340102255E-1   1.856142848787891E-1   5.323316960592494E-2  -1.906039325563079E-1   5.438763434658784E-2  -1.889699592074375E-1   9.281089727124720E-1   2.063179238545021E-1  
 1.191828222969547E5     9.409271228626404E-1   1.724839927708879E-1   5.341539652670446E-2  -1.867684662944844E-1   5.377633746257195E-2  -1.885712847072600E-1   9.227427433622182E-1   2.059516811869555E-1  
 1.194696766597238E5     9.423880307957935E-1   1.860358283532783E-1   5.309839685912366E-2  -1.898516849025129E-1   5.458861109914105E-2  -1.940401336900789E-1   9.483328629469504E-1   1.970652362829056E-1  
 1.197572214359590E5     9.613609795264331E-1   1.731678619006097E-1   5.562788888118470E-2  -1.915061703036325E-1   5.429542030409365E-2  -1.905444522262354E-1   9.483440575874741E-1   2.197569999574288E-1  
 1.200454582873772E5     9.432062139024614E-1   1.670703241659708E-1   5.151032977813391E-2  -1.887946958624970E-1   5.178997276517190E-2  -1.893725564616547E-1   9.538316239891688E-1   1.954587159418188E-1  
 1.203343888796949E5     9.577457205014327E-1   2.013753962596742E-1   5.698283396579709E-2  -1.991769551972748E-1   5.697755727904286E-2  -1.959419626043197E-1   9.880256296516166E-1   2.091957480131420E-1  
 1.206240148826375E5     9.495278777554362E-1   1.599541322542242E-1   5.217560120142453E-2  -1.888701701393471E-1   5.120763201445311E-2  -1.873535422219970E-1   9.256964988229898E-1   1.974859932243415E-1  
 1.209143379699495E5     9.699955036891792E-1   1.654099689042277E-1   5.297326307386206E-2  -1.898295958017748E-1   5.441028068235849E-2  -1.896292226546122E-1   9.348590198365889E-1   2.152178153833145E-1  
 1.212053598194036E5     9.773657554815324E-1   1.914502020785991E-1   5.231314089920794E-2  -1.926358689306361E-1   4.666939120760685E-2  -1.937275995691851E-1   9.479607745833800E-1   1.651708740993323E-1  
 1.214970821128107E5     9.601411993830896E-1   1.746141493847964E-1   5.398667826311611E-2  -1.874925178294488E-1   5.524444379375551E-2  -1.924808464433918E-1   9.559680304220213E-1   2.166229542080845E-1  
 1.217895065360295E5     9.682262367047114E-1   1.856075808155393E-1   4.978148210475215E-2  -1.917508140607583E-1   5.141955189438073E-2  -1.860695772233265E-1   9.539066263738854E-1   1.905745932740256E-1  
 1.220826347789763E5     9.573556193457516E-1   1.547933910945673E-1   4.654123140098763E-2  -1.886656490979069E-1   4.845392915117812E-2  -1.886317513398532E-1   9.714998513864956E-1   1.947707005393587E-1  
 1.223764685356350E5     9.583506602008528E-1   1.775903403482268E-1   5.350388906507393E-2  -1.891790618447349E-1   5.162163550745282E-2  -1.889727735443840E-1   9.659969020743714E-1   2.042210846525696E-1  
 1.226710095040663E5     9.544591708888567E-1   1.784258709486046E-1   5.340944866329445E-2  -1.860694037812782E-1   5.318297676524365E-2  -1.882767564862252E-1   9.357268856454727E-1   1.994707470445690E-1  
 1.229662593864181E5     9.336424781977748E-1   1.899081105931067E-1   5.596309707552213E-2  -1.882299608232668E-1   5.632999691310860E-2  -1.806010986818911E-1   9.387533461836479E-1   2.068577331418533E-1  
 1.232622198889350E5     9.660669089274406E-1   1.717519746542476E-1   4.925716198971503E-2  -1.860604611609643E-1   5.336523143892483E-2  -1.873414790679638E-1   9.429018145553318E-1   1.961673035246815E-1  
 1.235588927219683E5     9.487957381526753E-1   1.976983609187583E-1   5.353892123117430E-2  -1.862919466310170E-1   5.277077813345061E-2  -1.842237595704397E-1   9.467285972581194E-1   2.014770585128699E-1  
 1.238562795999859E5     9.504311289830609E-1   1.823798541440082E-1   5.567886405429501E-2  -1.827402717378308E-1   5.256237897605970E-2  -1.832996304430304E-1   9.364396706260136E-1   1.996527072656122E-1  
 1.241543822415821E5     9.765730085734123E-1   1.832371890574779E-1   5.173022974614646E-2  -1.863234337629892E-1   4.991764239063146E-2  -1.849476766736571E-1   9.337798536259666E-1   1.912685636341051E-1  
 1.244532023694874E5     9.566523242419122E-1   1.718545391393386E-1   4.598776734473711E-2  -1.893374748396229E-1   4.069802601814064E-2  -1.899474187363818E-1   9.857648988055487E-1   1.588140709944615E-1  
 1.247527417105791E5     9.400175597817294E-1   1.699817805299290E-1   5.276304248434299E-2  -1.837909670165022E-1   5.212285469225883E-2  -1.866900347741935E-1   9.763718671365480E-1   2.140057765408509E-1  
 1.250530019958903E5     9.564866224204590E-1   1.822789933990840E-1   4.999206146135133E-2  -1.809374299322430E-1   4.444307552431364E-2  -1.893607947281918E-1   9.636163743098405E-1   1.741106468005462E-1  
